date Thu Sep 11 02:37:01.650 pm 2025
base hex  timestamps absolute
no internal events logged
// version 16.7.0
// Measurement UUID: 16cc9b7a-4734-4e79-9806-bf6dd044b468
   0.311639 1  18FECA7Ex       Tx   d 8 04 FF 76 E3 FF 01 FF FF  Length = 276125 BitCount = 141 ID = 419351166x
   0.319934 1  18FECA7Ex       TxRq d 8 04 FF 76 E3 FF 01 FF FF  Length = 268084 BitCount = 141 ID = 419351166x
   0.486547 1  18FECA17x       Tx   d 8 00 00 00 00 00 00 00 00  Length = 284125 BitCount = 145 ID = 419351063x
   0.494304 1  18FECA17x       TxRq d 8 00 00 00 00 00 00 00 00  Length = 276078 BitCount = 145 ID = 419351063x
   1.311739 1  18FECA7Ex       Tx   d 8 04 FF 76 E3 FF 01 FF FF  Length = 276138 BitCount = 141 ID = 419351166x
   1.319993 1  18FECA7Ex       TxRq d 8 04 FF 76 E3 FF 01 FF FF  Length = 268084 BitCount = 141 ID = 419351166x
   1.486714 1  18FECA17x       Tx   d 8 00 00 00 00 00 00 00 00  Length = 284140 BitCount = 145 ID = 419351063x
   1.494175 1  18FECA17x       TxRq d 8 00 00 00 00 00 00 00 00  Length = 276093 BitCount = 145 ID = 419351063x
   2.312013 1  18FECA7Ex       Tx   d 8 04 FF 76 E3 FF 01 FF FF  Length = 276125 BitCount = 141 ID = 419351166x
   2.320053 1  18FECA7Ex       TxRq d 8 04 FF 76 E3 FF 01 FF FF  Length = 268084 BitCount = 141 ID = 419351166x
   2.486521 1  18FECA17x       Tx   d 8 00 00 00 00 00 00 00 00  Length = 284125 BitCount = 145 ID = 419351063x
   2.494451 1  18FECA17x       TxRq d 8 00 00 00 00 00 00 00 00  Length = 276078 BitCount = 145 ID = 419351063x
   3.312407 1  18FECA7Ex       Tx   d 8 04 FF 76 E3 FF 01 FF FF  Length = 276138 BitCount = 141 ID = 419351166x
   3.320115 1  18FECA7Ex       TxRq d 8 04 FF 76 E3 FF 01 FF FF  Length = 268084 BitCount = 141 ID = 419351166x
   3.486503 1  18FECA17x       Tx   d 8 00 00 00 00 00 00 00 00  Length = 284125 BitCount = 145 ID = 419351063x
   3.494236 1  18FECA17x       TxRq d 8 00 00 00 00 00 00 00 00  Length = 276078 BitCount = 145 ID = 419351063x
   4.312024 1  18FECA7Ex       Tx   d 8 04 FF 76 E3 FF 01 FF FF  Length = 276125 BitCount = 141 ID = 419351166x
   4.320174 1  18FECA7Ex       TxRq d 8 04 FF 76 E3 FF 01 FF FF  Length = 268084 BitCount = 141 ID = 419351166x
   4.486617 1  18FECA17x       Tx   d 8 00 00 00 00 00 00 00 00  Length = 284140 BitCount = 145 ID = 419351063x
   4.494263 1  18FECA17x       TxRq d 8 00 00 00 00 00 00 00 00  Length = 276093 BitCount = 145 ID = 419351063x
   5.312028 1  18FECA7Ex       Tx   d 8 04 FF 76 E3 FF 01 FF FF  Length = 276140 BitCount = 141 ID = 419351166x
   5.320233 1  18FECA7Ex       TxRq d 8 04 FF 76 E3 FF 01 FF FF  Length = 268084 BitCount = 141 ID = 419351166x
   5.486583 1  18FECA17x       Tx   d 8 00 00 00 00 00 00 00 00  Length = 284125 BitCount = 145 ID = 419351063x
   5.494235 1  18FECA17x       TxRq d 8 00 00 00 00 00 00 00 00  Length = 276078 BitCount = 145 ID = 419351063x
   5.933180 1  18FECA03x       Tx   d 8 C0 FF 00 00 00 00 FF FF  Length = 282125 BitCount = 144 ID = 419351043x
   5.933468 1  18FECA10x       Tx   d 8 C0 FF 00 00 00 00 FF FF  Length = 282125 BitCount = 144 ID = 419351056x
   5.940991 1  18FECA03x       TxRq d 8 C0 FF 00 00 00 00 FF FF  Length = 274081 BitCount = 144 ID = 419351043x
   5.941293 1  18FECA10x       TxRq d 8 C0 FF 00 00 00 00 FF FF  Length = 274081 BitCount = 144 ID = 419351056x
   6.312397 1  18FECA7Ex       Tx   d 8 04 FF 76 E3 FF 01 FF FF  Length = 276125 BitCount = 141 ID = 419351166x
   6.320295 1  18FECA7Ex       TxRq d 8 04 FF 76 E3 FF 01 FF FF  Length = 268084 BitCount = 141 ID = 419351166x
   6.486773 1  18FECA17x       Tx   d 8 00 00 00 00 00 00 00 00  Length = 284125 BitCount = 145 ID = 419351063x
   6.495167 1  18FECA17x       TxRq d 8 00 00 00 00 00 00 00 00  Length = 276078 BitCount = 145 ID = 419351063x
   6.643808 1  18FECA2Fx       Tx   d 8 00 00 00 00 00 00 00 00  Length = 286125 BitCount = 146 ID = 419351087x
   6.651764 1  18FECA2Fx       TxRq d 8 00 00 00 00 00 00 00 00  Length = 278078 BitCount = 146 ID = 419351087x
   6.934363 1  18FECA03x       Tx   d 8 C0 FF 00 00 00 00 FF FF  Length = 282141 BitCount = 144 ID = 419351043x
   6.934942 1  18FECA10x       Tx   d 8 C0 FF 00 00 00 00 FF FF  Length = 282141 BitCount = 144 ID = 419351056x
   6.942170 1  18FECA03x       TxRq d 8 C0 FF 00 00 00 00 FF FF  Length = 274081 BitCount = 144 ID = 419351043x
   6.942748 1  18FECA10x       TxRq d 8 C0 FF 00 00 00 00 FF FF  Length = 274081 BitCount = 144 ID = 419351056x
   6.946531 1  18FECA2Fx       Tx   d 8 01 00 DF 0B 1F 01 00 00  Length = 282141 BitCount = 144 ID = 419351087x
   6.954867 1  18FECA2Fx       TxRq d 8 01 00 DF 0B 1F 01 00 00  Length = 274081 BitCount = 144 ID = 419351087x
   6.991483 1  18FECA00x       Tx   d 8 00 C0 00 00 00 00 FF FF  Length = 286141 BitCount = 146 ID = 419351040x
   6.999269 1  18FECA00x       TxRq d 8 00 C0 00 00 00 00 FF FF  Length = 278078 BitCount = 146 ID = 419351040x
   7.312375 1  18FECA7Ex       Tx   d 8 04 FF 76 E3 FF 01 FF FF  Length = 276138 BitCount = 141 ID = 419351166x
   7.320356 1  18FECA7Ex       TxRq d 8 04 FF 76 E3 FF 01 FF FF  Length = 268084 BitCount = 141 ID = 419351166x
   7.487585 1  18FECA17x       Tx   d 8 00 00 00 00 00 00 00 00  Length = 284141 BitCount = 145 ID = 419351063x
   7.495689 1  18FECA17x       TxRq d 8 00 00 00 00 00 00 00 00  Length = 276093 BitCount = 145 ID = 419351063x
   7.787147 1  18FECA33x       Tx   d 8 00 FF 00 00 00 00 FF FF  Length = 282125 BitCount = 144 ID = 419351091x
   7.795481 1  18FECA33x       TxRq d 8 00 FF 00 00 00 00 FF FF  Length = 274317 BitCount = 144 ID = 419351091x
   7.934700 1  18FECA03x       Tx   d 8 C0 FF 00 00 00 00 FF FF  Length = 282141 BitCount = 144 ID = 419351043x
   7.935127 1  18FECA10x       Tx   d 8 C0 FF 00 00 00 00 FF FF  Length = 282141 BitCount = 144 ID = 419351056x
   7.943109 1  18FECA03x       TxRq d 8 C0 FF 00 00 00 00 FF FF  Length = 274096 BitCount = 144 ID = 419351043x
   7.943411 1  18FECA10x       TxRq d 8 C0 FF 00 00 00 00 FF FF  Length = 274081 BitCount = 144 ID = 419351056x
   7.946840 1  18FECA2Fx       Tx   d 8 01 00 DF 0B 1F 01 00 00  Length = 282141 BitCount = 144 ID = 419351087x
   7.954514 1  18FECA2Fx       TxRq d 8 01 00 DF 0B 1F 01 00 00  Length = 274081 BitCount = 144 ID = 419351087x
   7.991358 1  18FECA00x       Tx   d 8 00 FF 00 00 00 00 FF FF  Length = 286141 BitCount = 146 ID = 419351040x
   7.999494 1  18FECA00x       TxRq d 8 00 FF 00 00 00 00 FF FF  Length = 278078 BitCount = 146 ID = 419351040x
   8.312396 1  18FECA7Ex       Tx   d 8 04 FF 76 E3 FF 01 FF FF  Length = 276138 BitCount = 141 ID = 419351166x
   8.320416 1  18FECA7Ex       TxRq d 8 04 FF 76 E3 FF 01 FF FF  Length = 268099 BitCount = 141 ID = 419351166x
   8.487116 1  18FECA17x       Tx   d 8 00 00 00 00 00 00 00 00  Length = 284125 BitCount = 145 ID = 419351063x
   8.495063 1  18FECA17x       TxRq d 8 00 00 00 00 00 00 00 00  Length = 276078 BitCount = 145 ID = 419351063x
   8.597667 1  18FECA0Bx       Tx   d 8 C0 FF 00 00 00 00 FF FF  Length = 284125 BitCount = 145 ID = 419351051x
   8.606030 1  18FECA0Bx       TxRq d 8 C0 FF 00 00 00 00 FF FF  Length = 276078 BitCount = 145 ID = 419351051x
   8.806745 1  18FECA33x       Tx   d 8 00 FF 00 00 00 00 FF FF  Length = 282125 BitCount = 144 ID = 419351091x
   8.815155 1  18FECA33x       TxRq d 8 00 FF 00 00 00 00 FF FF  Length = 274081 BitCount = 144 ID = 419351091x
   8.936135 1  18FECA03x       Tx   d 8 C0 FF 00 00 00 00 FF FF  Length = 282140 BitCount = 144 ID = 419351043x
   8.936423 1  18FECA10x       Tx   d 8 C0 FF 00 00 00 00 FF FF  Length = 282140 BitCount = 144 ID = 419351056x
   8.944131 1  18FECA03x       TxRq d 8 C0 FF 00 00 00 00 FF FF  Length = 274081 BitCount = 144 ID = 419351043x
   8.944433 1  18FECA10x       TxRq d 8 C0 FF 00 00 00 00 FF FF  Length = 274081 BitCount = 144 ID = 419351056x
   8.946190 1  18FECA2Fx       Tx   d 8 01 00 DF 0B 1F 01 00 00  Length = 282140 BitCount = 144 ID = 419351087x
   8.954474 1  18FECA2Fx       TxRq d 8 01 00 DF 0B 1F 01 00 00  Length = 274081 BitCount = 144 ID = 419351087x
   8.991524 1  18FECA00x       Tx   d 8 00 FF 00 00 00 00 FF FF  Length = 286140 BitCount = 146 ID = 419351040x
   8.999376 1  18FECA00x       TxRq d 8 00 FF 00 00 00 00 FF FF  Length = 278078 BitCount = 146 ID = 419351040x
   9.311940 1  18FECA7Ex       Tx   d 8 04 FF 76 E3 FF 01 FF FF  Length = 276140 BitCount = 141 ID = 419351166x
   9.320479 1  18FECA7Ex       TxRq d 8 04 FF 76 E3 FF 01 FF FF  Length = 268084 BitCount = 141 ID = 419351166x
   9.487321 1  18FECA17x       Tx   d 8 00 00 00 00 00 00 00 00  Length = 284125 BitCount = 145 ID = 419351063x
   9.495485 1  18FECA17x       TxRq d 8 00 00 00 00 00 00 00 00  Length = 276078 BitCount = 145 ID = 419351063x
   9.827504 1  18FECA33x       Tx   d 8 00 FF 00 00 00 00 FF FF  Length = 282141 BitCount = 144 ID = 419351091x
   9.835683 1  18FECA33x       TxRq d 8 00 FF 00 00 00 00 FF FF  Length = 274081 BitCount = 144 ID = 419351091x
   9.937970 1  18FECA03x       Tx   d 8 C0 FF 00 00 00 00 FF FF  Length = 282140 BitCount = 144 ID = 419351043x
   9.938258 1  18FECA10x       Tx   d 8 C0 FF 00 00 00 00 FF FF  Length = 282140 BitCount = 144 ID = 419351056x
   9.945775 1  18FECA03x       TxRq d 8 C0 FF 00 00 00 00 FF FF  Length = 274081 BitCount = 144 ID = 419351043x
   9.946075 1  18FECA10x       TxRq d 8 C0 FF 00 00 00 00 FF FF  Length = 274081 BitCount = 144 ID = 419351056x
   9.946853 1  18FECA2Fx       Tx   d 8 00 00 00 00 00 00 00 00  Length = 286140 BitCount = 146 ID = 419351087x
   9.954824 1  18FECA2Fx       TxRq d 8 00 00 00 00 00 00 00 00  Length = 278078 BitCount = 146 ID = 419351087x
   9.992572 1  18FECA00x       Tx   d 8 00 FF 00 00 00 00 FF FF  Length = 286140 BitCount = 146 ID = 419351040x
   9.999862 1  18FECA00x       TxRq d 8 00 FF 00 00 00 00 FF FF  Length = 278078 BitCount = 146 ID = 419351040x
  10.312419 1  18FECA7Ex       Tx   d 8 04 FF 76 E3 FF 01 FF FF  Length = 276140 BitCount = 141 ID = 419351166x
  10.320536 1  18FECA7Ex       TxRq d 8 04 FF 76 E3 FF 01 FF FF  Length = 268084 BitCount = 141 ID = 419351166x
  10.487051 1  18FECA17x       Tx   d 8 00 00 00 00 00 00 00 00  Length = 284125 BitCount = 145 ID = 419351063x
  10.494913 1  18FECA17x       TxRq d 8 00 00 00 00 00 00 00 00  Length = 276078 BitCount = 145 ID = 419351063x
  10.848128 1  18FECA33x       Tx   d 8 00 FF 00 00 00 00 FF FF  Length = 282125 BitCount = 144 ID = 419351091x
  10.856028 1  18FECA33x       TxRq d 8 00 FF 00 00 00 00 FF FF  Length = 274081 BitCount = 144 ID = 419351091x
  10.938811 1  18FECA03x       Tx   d 8 C0 FF 00 00 00 00 FF FF  Length = 282125 BitCount = 144 ID = 419351043x
  10.939099 1  18FECA10x       Tx   d 8 C0 FF 00 00 00 00 FF FF  Length = 282125 BitCount = 144 ID = 419351056x
  10.946564 1  18FECA2Fx       Tx   d 8 00 00 00 00 00 00 00 00  Length = 286125 BitCount = 146 ID = 419351087x
  10.946701 1  18FECA03x       TxRq d 8 C0 FF 00 00 00 00 FF FF  Length = 274081 BitCount = 144 ID = 419351043x
  10.947001 1  18FECA10x       TxRq d 8 C0 FF 00 00 00 00 FF FF  Length = 274081 BitCount = 144 ID = 419351056x
  10.954721 1  18FECA2Fx       TxRq d 8 00 00 00 00 00 00 00 00  Length = 278078 BitCount = 146 ID = 419351087x
  10.990499 1  18FECA00x       Tx   d 8 00 FF 00 00 00 00 FF FF  Length = 286125 BitCount = 146 ID = 419351040x
  10.998675 1  18FECA00x       TxRq d 8 00 FF 00 00 00 00 FF FF  Length = 278093 BitCount = 146 ID = 419351040x
  11.312462 1  18FECA7Ex       Tx   d 8 04 FF 76 E3 FF 01 FF FF  Length = 276125 BitCount = 141 ID = 419351166x
  11.320792 1  18FECA7Ex       TxRq d 8 04 FF 76 E3 FF 01 FF FF  Length = 268084 BitCount = 141 ID = 419351166x
  11.487112 1  18FECA17x       Tx   d 8 00 00 00 00 00 00 00 00  Length = 284141 BitCount = 145 ID = 419351063x
  11.495064 1  18FECA17x       TxRq d 8 00 00 00 00 00 00 00 00  Length = 276078 BitCount = 145 ID = 419351063x
  11.781549 1  18FECA21x       Tx   d 6 00 FF 40 12 13 7F  Length = 236138 BitCount = 121 ID = 419351073x
  11.790088 1  18FECA21x       TxRq d 6 00 FF 40 12 13 7F  Length = 228126 BitCount = 121 ID = 419351073x
  11.867638 1  18FECA33x       Tx   d 8 00 FF 00 00 00 00 FF FF  Length = 282141 BitCount = 144 ID = 419351091x
  11.875618 1  18FECA33x       TxRq d 8 00 FF 00 00 00 00 FF FF  Length = 274081 BitCount = 144 ID = 419351091x
  11.939194 1  18FECA03x       Tx   d 8 C0 FF 00 00 00 00 FF FF  Length = 282141 BitCount = 144 ID = 419351043x
  11.939482 1  18FECA10x       Tx   d 8 C0 FF 00 00 00 00 FF FF  Length = 282141 BitCount = 144 ID = 419351056x
  11.947260 1  18FECA03x       TxRq d 8 C0 FF 00 00 00 00 FF FF  Length = 274081 BitCount = 144 ID = 419351043x
  11.947560 1  18FECA10x       TxRq d 8 C0 FF 00 00 00 00 FF FF  Length = 274081 BitCount = 144 ID = 419351056x
  11.948093 1  18FECA2Fx       Tx   d 8 00 00 00 00 00 00 00 00  Length = 286141 BitCount = 146 ID = 419351087x
  11.956025 1  18FECA2Fx       TxRq d 8 00 00 00 00 00 00 00 00  Length = 278078 BitCount = 146 ID = 419351087x
  11.991416 1  18FECA00x       Tx   d 8 00 FF 00 00 00 00 FF FF  Length = 286141 BitCount = 146 ID = 419351040x
  11.999223 1  18FECA00x       TxRq d 8 00 FF 00 00 00 00 FF FF  Length = 278314 BitCount = 146 ID = 419351040x
  12.312400 1  18FECA7Ex       Tx   d 8 04 FF 76 E3 FF 01 FF FF  Length = 276138 BitCount = 141 ID = 419351166x
  12.320657 1  18FECA7Ex       TxRq d 8 04 FF 76 E3 FF 01 FF FF  Length = 268084 BitCount = 141 ID = 419351166x
  12.487111 1  18FECA17x       Tx   d 6 04 00 04 10 0C 03  Length = 242137 BitCount = 124 ID = 419351063x
  12.495064 1  18FECA17x       TxRq d 6 04 00 04 10 0C 03  Length = 234108 BitCount = 124 ID = 419351063x
  12.786311 1  18FECA21x       Tx   d 6 00 FF 40 12 13 7F  Length = 236138 BitCount = 121 ID = 419351073x
  12.794148 1  18FECA21x       TxRq d 6 00 FF 40 12 13 7F  Length = 228111 BitCount = 121 ID = 419351073x
  12.887207 1  18FECA33x       Tx   d 8 00 FF 00 00 00 00 FF FF  Length = 282125 BitCount = 144 ID = 419351091x
  12.895601 1  18FECA33x       TxRq d 8 00 FF 00 00 00 00 FF FF  Length = 274081 BitCount = 144 ID = 419351091x
  12.940172 1  18FECA03x       Tx   d 8 C0 FF 00 00 00 00 FF FF  Length = 282125 BitCount = 144 ID = 419351043x
  12.940460 1  18FECA10x       Tx   d 8 C0 FF 00 00 00 00 FF FF  Length = 282125 BitCount = 144 ID = 419351056x
  12.947354 1  18FECA2Fx       Tx   d 8 00 00 00 00 00 00 00 00  Length = 286125 BitCount = 146 ID = 419351087x
  12.948284 1  18FECA03x       TxRq d 8 C0 FF 00 00 00 00 FF FF  Length = 274081 BitCount = 144 ID = 419351043x
  12.948584 1  18FECA10x       TxRq d 8 C0 FF 00 00 00 00 FF FF  Length = 274081 BitCount = 144 ID = 419351056x
  12.955398 1  18FECA2Fx       TxRq d 8 00 00 00 00 00 00 00 00  Length = 278078 BitCount = 146 ID = 419351087x
  12.991190 1  18FECA00x       Tx   d 8 00 FF 00 00 00 00 FF FF  Length = 286125 BitCount = 146 ID = 419351040x
  12.999186 1  18FECA00x       TxRq d 8 00 FF 00 00 00 00 FF FF  Length = 278078 BitCount = 146 ID = 419351040x
  13.312413 1  18FECA7Ex       Tx   d 8 04 FF 76 E3 FF 01 FF FF  Length = 276125 BitCount = 141 ID = 419351166x
  13.320717 1  18FECA7Ex       TxRq d 8 04 FF 76 E3 FF 01 FF FF  Length = 268084 BitCount = 141 ID = 419351166x
  13.486787 1  18FECA17x       Tx   d 6 04 00 04 10 0C 03  Length = 242122 BitCount = 124 ID = 419351063x
  13.495029 1  18FECA17x       TxRq d 6 04 00 04 10 0C 03  Length = 234108 BitCount = 124 ID = 419351063x
  13.791866 1  18FECA21x       Tx   d 6 00 FF 40 12 13 7F  Length = 236138 BitCount = 121 ID = 419351073x
  13.800178 1  18FECA21x       TxRq d 6 00 FF 40 12 13 7F  Length = 228111 BitCount = 121 ID = 419351073x
  13.907539 1  18FECA33x       Tx   d 8 00 FF 00 00 00 00 FF FF  Length = 282125 BitCount = 144 ID = 419351091x
  13.915595 1  18FECA33x       TxRq d 8 00 FF 00 00 00 00 FF FF  Length = 274081 BitCount = 144 ID = 419351091x
  13.941973 1  18FECA03x       Tx   d 8 C0 FF 00 00 00 00 FF FF  Length = 282125 BitCount = 144 ID = 419351043x
  13.942261 1  18FECA10x       Tx   d 8 C0 FF 00 00 00 00 FF FF  Length = 282125 BitCount = 144 ID = 419351056x
  13.946854 1  18FECA2Fx       Tx   d 8 00 00 00 00 00 00 00 00  Length = 286125 BitCount = 146 ID = 419351087x
  13.949760 1  18FECA03x       TxRq d 8 C0 FF 00 00 00 00 FF FF  Length = 274081 BitCount = 144 ID = 419351043x
  13.950062 1  18FECA10x       TxRq d 8 C0 FF 00 00 00 00 FF FF  Length = 274096 BitCount = 144 ID = 419351056x
  13.954710 1  18FECA2Fx       TxRq d 8 00 00 00 00 00 00 00 00  Length = 278078 BitCount = 146 ID = 419351087x
  13.991681 1  18FECA00x       Tx   d 8 00 FF 00 00 00 00 FF FF  Length = 286125 BitCount = 146 ID = 419351040x
  13.999421 1  18FECA00x       TxRq d 8 00 FF 00 00 00 00 FF FF  Length = 278078 BitCount = 146 ID = 419351040x
  14.312385 1  18FECA7Ex       Tx   d 8 04 FF 76 E3 FF 01 FF FF  Length = 276125 BitCount = 141 ID = 419351166x
  14.320779 1  18FECA7Ex       TxRq d 8 04 FF 76 E3 FF 01 FF FF  Length = 268084 BitCount = 141 ID = 419351166x
  14.486764 1  18FECA17x       Tx   d 6 04 00 04 10 0C 03  Length = 242122 BitCount = 124 ID = 419351063x
  14.494992 1  18FECA17x       TxRq d 6 04 00 04 10 0C 03  Length = 234108 BitCount = 124 ID = 419351063x
  14.801578 1  18FECA21x       Tx   d 6 00 FF 40 12 13 7F  Length = 236122 BitCount = 121 ID = 419351073x
  14.809216 1  18FECA21x       TxRq d 6 00 FF 40 12 13 7F  Length = 228111 BitCount = 121 ID = 419351073x
  14.927535 1  18FECA33x       Tx   d 8 00 FF 00 00 00 00 FF FF  Length = 282125 BitCount = 144 ID = 419351091x
  14.935586 1  18FECA33x       TxRq d 8 00 FF 00 00 00 00 FF FF  Length = 274081 BitCount = 144 ID = 419351091x
  14.941765 1  18FECA03x       Tx   d 8 C0 FF 00 00 00 00 FF FF  Length = 282125 BitCount = 144 ID = 419351043x
  14.942307 1  18FECA10x       Tx   d 8 C0 FF 00 00 00 00 FF FF  Length = 282125 BitCount = 144 ID = 419351056x
  14.946556 1  18FECA2Fx       Tx   d 8 00 00 00 00 00 00 00 00  Length = 286125 BitCount = 146 ID = 419351087x
  14.950228 1  18FECA03x       TxRq d 8 C0 FF 00 00 00 00 FF FF  Length = 274096 BitCount = 144 ID = 419351043x
  14.950530 1  18FECA10x       TxRq d 8 C0 FF 00 00 00 00 FF FF  Length = 274096 BitCount = 144 ID = 419351056x
  14.954676 1  18FECA2Fx       TxRq d 8 00 00 00 00 00 00 00 00  Length = 278078 BitCount = 146 ID = 419351087x
  14.991746 1  18FECA00x       Tx   d 8 00 FF 00 00 00 00 FF FF  Length = 286125 BitCount = 146 ID = 419351040x
  14.999403 1  18FECA00x       TxRq d 8 00 FF 00 00 00 00 FF FF  Length = 278078 BitCount = 146 ID = 419351040x
  15.312526 1  18FECA7Ex       Tx   d 8 04 FF 76 E3 FF 01 FF FF  Length = 276125 BitCount = 141 ID = 419351166x
  15.320839 1  18FECA7Ex       TxRq d 8 04 FF 76 E3 FF 01 FF FF  Length = 268084 BitCount = 141 ID = 419351166x
  15.487086 1  18FECA17x       Tx   d 6 04 00 04 10 0C 03  Length = 242122 BitCount = 124 ID = 419351063x
  15.495049 1  18FECA17x       TxRq d 6 04 00 04 10 0C 03  Length = 234123 BitCount = 124 ID = 419351063x
  15.807396 1  18FECA21x       Tx   d 6 00 FF 40 12 13 7F  Length = 236122 BitCount = 121 ID = 419351073x
  15.815154 1  18FECA21x       TxRq d 6 00 FF 40 12 13 7F  Length = 228126 BitCount = 121 ID = 419351073x
  15.943160 1  18FECA03x       Tx   d 8 C0 FF 00 00 00 00 FF FF  Length = 282125 BitCount = 144 ID = 419351043x
  15.943449 1  18FECA10x       Tx   d 8 C0 FF 00 00 00 00 FF FF  Length = 282125 BitCount = 144 ID = 419351056x
  15.946537 1  18FECA2Fx       Tx   d 8 00 00 00 00 00 00 00 00  Length = 286125 BitCount = 146 ID = 419351087x
  15.946957 1  18FECA33x       Tx   d 8 00 FF 00 00 00 00 FF FF  Length = 282125 BitCount = 144 ID = 419351091x
  15.951231 1  18FECA03x       TxRq d 8 C0 FF 00 00 00 00 FF FF  Length = 274081 BitCount = 144 ID = 419351043x
  15.951533 1  18FECA10x       TxRq d 8 C0 FF 00 00 00 00 FF FF  Length = 274081 BitCount = 144 ID = 419351056x
  15.954890 1  18FECA2Fx       TxRq d 8 00 00 00 00 00 00 00 00  Length = 278078 BitCount = 146 ID = 419351087x
  15.955586 1  18FECA33x       TxRq d 8 00 FF 00 00 00 00 FF FF  Length = 274081 BitCount = 144 ID = 419351091x
  15.990512 1  18FECA00x       Tx   d 8 00 FF 00 00 00 00 FF FF  Length = 286125 BitCount = 146 ID = 419351040x
  15.998485 1  18FECA00x       TxRq d 8 00 FF 00 00 00 00 FF FF  Length = 278093 BitCount = 146 ID = 419351040x
  16.312389 1  18FECA7Ex       Tx   d 8 04 FF 76 E3 FF 01 FF FF  Length = 276125 BitCount = 141 ID = 419351166x
  16.320898 1  18FECA7Ex       TxRq d 8 04 FF 76 E3 FF 01 FF FF  Length = 268084 BitCount = 141 ID = 419351166x
  16.486825 1  18FECA17x       Tx   d 6 04 00 04 10 0C 03  Length = 242138 BitCount = 124 ID = 419351063x
  16.494949 1  18FECA17x       TxRq d 6 04 00 04 10 0C 03  Length = 234108 BitCount = 124 ID = 419351063x
  16.816373 1  18FECA21x       Tx   d 6 00 FF 40 12 13 7F  Length = 236122 BitCount = 121 ID = 419351073x
  16.824103 1  18FECA21x       TxRq d 6 00 FF 40 12 13 7F  Length = 228126 BitCount = 121 ID = 419351073x
  16.944149 1  18FECA03x       Tx   d 8 C0 FF 00 00 00 00 FF FF  Length = 282125 BitCount = 144 ID = 419351043x
  16.944438 1  18FECA10x       Tx   d 8 C0 FF 00 00 00 00 FF FF  Length = 282125 BitCount = 144 ID = 419351056x
  16.946554 1  18FECA2Fx       Tx   d 8 00 00 00 00 00 00 00 00  Length = 286125 BitCount = 146 ID = 419351087x
  16.952248 1  18FECA03x       TxRq d 8 C0 FF 00 00 00 00 FF FF  Length = 274081 BitCount = 144 ID = 419351043x
  16.952550 1  18FECA10x       TxRq d 8 C0 FF 00 00 00 00 FF FF  Length = 274081 BitCount = 144 ID = 419351056x
  16.954846 1  18FECA2Fx       TxRq d 8 00 00 00 00 00 00 00 00  Length = 278078 BitCount = 146 ID = 419351087x
  16.971416 1  18FECA33x       Tx   d 8 00 FF 00 00 00 00 FF FF  Length = 282125 BitCount = 144 ID = 419351091x
  16.979240 1  18FECA33x       TxRq d 8 00 FF 00 00 00 00 FF FF  Length = 274081 BitCount = 144 ID = 419351091x
  16.991431 1  18FECA00x       Tx   d 8 00 FF 00 00 00 00 FF FF  Length = 286125 BitCount = 146 ID = 419351040x
  16.999077 1  18FECA00x       TxRq d 8 00 FF 00 00 00 00 FF FF  Length = 278078 BitCount = 146 ID = 419351040x
  17.312397 1  18FECA7Ex       Tx   d 8 04 FF 76 E3 FF 01 FF FF  Length = 276125 BitCount = 141 ID = 419351166x
  17.320961 1  18FECA7Ex       TxRq d 8 04 FF 76 E3 FF 01 FF FF  Length = 268084 BitCount = 141 ID = 419351166x
  17.487083 1  18FECA17x       Tx   d 6 04 00 04 10 0C 03  Length = 242122 BitCount = 124 ID = 419351063x
  17.495133 1  18FECA17x       TxRq d 6 04 00 04 10 0C 03  Length = 234108 BitCount = 124 ID = 419351063x
  17.824752 1  18FECA21x       Tx   d 6 00 FF 40 12 13 7F  Length = 236138 BitCount = 121 ID = 419351073x
  17.833099 1  18FECA21x       TxRq d 6 00 FF 40 12 13 7F  Length = 228111 BitCount = 121 ID = 419351073x
  17.945101 1  18FECA03x       Tx   d 8 C0 FF 00 00 00 00 FF FF  Length = 282125 BitCount = 144 ID = 419351043x
  17.945389 1  18FECA10x       Tx   d 8 C0 FF 00 00 00 00 FF FF  Length = 282125 BitCount = 144 ID = 419351056x
  17.946520 1  18FECA2Fx       Tx   d 8 00 00 00 00 00 00 00 00  Length = 286125 BitCount = 146 ID = 419351087x
  17.953262 1  18FECA03x       TxRq d 8 C0 FF 00 00 00 00 FF FF  Length = 274081 BitCount = 144 ID = 419351043x
  17.953564 1  18FECA10x       TxRq d 8 C0 FF 00 00 00 00 FF FF  Length = 274096 BitCount = 144 ID = 419351056x
  17.954878 1  18FECA2Fx       TxRq d 8 00 00 00 00 00 00 00 00  Length = 278093 BitCount = 146 ID = 419351087x
  17.988158 1  18FECA33x       Tx   d 8 00 FF 00 00 00 00 FF FF  Length = 282125 BitCount = 144 ID = 419351091x
  17.990465 1  18FECA00x       Tx   d 8 00 FF 00 00 00 00 FF FF  Length = 286125 BitCount = 146 ID = 419351040x
  17.996230 1  18FECA33x       TxRq d 8 00 FF 00 00 00 00 FF FF  Length = 274332 BitCount = 144 ID = 419351091x
  17.998568 1  18FECA00x       TxRq d 8 00 FF 00 00 00 00 FF FF  Length = 278093 BitCount = 146 ID = 419351040x
  18.312370 1  18FECA7Ex       Tx   d 8 04 FF 76 E3 FF 01 FF FF  Length = 276125 BitCount = 141 ID = 419351166x
  18.321021 1  18FECA7Ex       TxRq d 8 04 FF 76 E3 FF 01 FF FF  Length = 268084 BitCount = 141 ID = 419351166x
  18.487470 1  18FECA17x       Tx   d 6 04 00 04 10 0C 03  Length = 242137 BitCount = 124 ID = 419351063x
  18.495316 1  18FECA17x       TxRq d 6 04 00 04 10 0C 03  Length = 234108 BitCount = 124 ID = 419351063x
  18.834353 1  18FECA21x       Tx   d 6 00 FF 40 12 13 7F  Length = 236122 BitCount = 121 ID = 419351073x
  18.842996 1  18FECA21x       TxRq d 6 00 FF 40 12 13 7F  Length = 228111 BitCount = 121 ID = 419351073x
  18.946382 1  18FECA03x       Tx   d 8 C0 FF 00 00 00 00 FF FF  Length = 282125 BitCount = 144 ID = 419351043x
  18.946671 1  18FECA10x       Tx   d 8 C0 FF 00 00 00 00 FF FF  Length = 282125 BitCount = 144 ID = 419351056x
  18.946965 1  18FECA2Fx       Tx   d 8 00 00 00 00 00 00 00 00  Length = 286125 BitCount = 146 ID = 419351087x
  18.954291 1  18FECA03x       TxRq d 8 C0 FF 00 00 00 00 FF FF  Length = 274081 BitCount = 144 ID = 419351043x
  18.954593 1  18FECA10x       TxRq d 8 C0 FF 00 00 00 00 FF FF  Length = 274081 BitCount = 144 ID = 419351056x
